<Qucs Dataset 0.0.19>
<indep VoltageVar 10>
  +5.00000000000000000000e+000
  +1.00000000000000000000e+001
  +1.50000000000000000000e+001
  +2.00000000000000000000e+001
  +2.50000000000000000000e+001
  +3.00000000000000000000e+001
  +3.50000000000000000000e+001
  +4.00000000000000000000e+001
  +4.50000000000000000000e+001
  +5.00000000000000000000e+001
</indep>
<dep V1.I VoltageVar>
  -1.80000000000000021094e-002
  -1.80000000000000021094e-002
  -1.80000000000000021094e-002
  -1.80000000000000021094e-002
  -1.80000000000000021094e-002
  -1.80000000000000021094e-002
  -1.80000000000000021094e-002
  -1.80000000000000021094e-002
  -1.80000000000000021094e-002
  -1.80000000000000021094e-002
</dep>
<dep Pr2.I VoltageVar>
  +6.00000000000000012490e-003
  +6.00000000000000012490e-003
  +6.00000000000000012490e-003
  +6.00000000000000012490e-003
  +6.00000000000000012490e-003
  +6.00000000000000012490e-003
  +6.00000000000000012490e-003
  +6.00000000000000012490e-003
  +6.00000000000000012490e-003
  +6.00000000000000012490e-003
</dep>
<dep Pr1.I VoltageVar>
  +1.20000000000000002498e-002
  +1.20000000000000002498e-002
  +1.20000000000000002498e-002
  +1.20000000000000002498e-002
  +1.20000000000000002498e-002
  +1.20000000000000002498e-002
  +1.20000000000000002498e-002
  +1.20000000000000002498e-002
  +1.20000000000000002498e-002
  +1.20000000000000002498e-002
</dep>
<dep _net1.V VoltageVar>
  +0.00000000000000000000e+000
  +0.00000000000000000000e+000
  +0.00000000000000000000e+000
  +0.00000000000000000000e+000
  +0.00000000000000000000e+000
  +0.00000000000000000000e+000
  +0.00000000000000000000e+000
  +0.00000000000000000000e+000
  +0.00000000000000000000e+000
  +0.00000000000000000000e+000
</dep>
<dep _net2.V VoltageVar>
  +0.00000000000000000000e+000
  +0.00000000000000000000e+000
  +0.00000000000000000000e+000
  +0.00000000000000000000e+000
  +0.00000000000000000000e+000
  +0.00000000000000000000e+000
  +0.00000000000000000000e+000
  +0.00000000000000000000e+000
  +0.00000000000000000000e+000
  +0.00000000000000000000e+000
</dep>
<dep _net0.V VoltageVar>
  +1.20000000000000000000e+001
  +1.20000000000000000000e+001
  +1.20000000000000000000e+001
  +1.20000000000000000000e+001
  +1.20000000000000000000e+001
  +1.20000000000000000000e+001
  +1.20000000000000000000e+001
  +1.20000000000000000000e+001
  +1.20000000000000000000e+001
  +1.20000000000000000000e+001
</dep>
