<Qucs Dataset 0.0.19>
<indep VoltageVar 21>
  +0.00000000000000000000e+000
  +5.00000000000000000000e-001
  +1.00000000000000000000e+000
  +1.50000000000000000000e+000
  +2.00000000000000000000e+000
  +2.50000000000000000000e+000
  +3.00000000000000000000e+000
  +3.50000000000000000000e+000
  +4.00000000000000000000e+000
  +4.50000000000000000000e+000
  +5.00000000000000000000e+000
  +5.50000000000000000000e+000
  +6.00000000000000000000e+000
  +6.50000000000000000000e+000
  +7.00000000000000000000e+000
  +7.50000000000000000000e+000
  +8.00000000000000000000e+000
  +8.50000000000000000000e+000
  +9.00000000000000000000e+000
  +9.50000000000000000000e+000
  +1.00000000000000000000e+001
</indep>
<dep V1.I VoltageVar>
  +0.00000000000000000000e+000
  -2.50000000000000005204e-004
  -5.00000000000000010408e-004
  -7.50000000000000015613e-004
  -1.00000000000000002082e-003
  -1.25000000000000002602e-003
  -1.50000000000000003123e-003
  -1.75000000000000003643e-003
  -2.00000000000000004163e-003
  -2.25000000000000026368e-003
  -2.50000000000000005204e-003
  -2.74999999999999984041e-003
  -3.00000000000000006245e-003
  -3.25000000000000028449e-003
  -3.50000000000000007286e-003
  -3.74999999999999986122e-003
  -4.00000000000000008327e-003
  -4.25000000000000030531e-003
  -4.50000000000000052736e-003
  -4.74999999999999988204e-003
  -5.00000000000000010408e-003
</dep>
<dep Pr1.I VoltageVar>
  +0.00000000000000000000e+000
  +2.50000000000000005204e-004
  +5.00000000000000010408e-004
  +7.50000000000000015613e-004
  +1.00000000000000002082e-003
  +1.25000000000000002602e-003
  +1.50000000000000003123e-003
  +1.75000000000000003643e-003
  +2.00000000000000004163e-003
  +2.25000000000000026368e-003
  +2.50000000000000005204e-003
  +2.74999999999999984041e-003
  +3.00000000000000006245e-003
  +3.25000000000000028449e-003
  +3.50000000000000007286e-003
  +3.74999999999999986122e-003
  +4.00000000000000008327e-003
  +4.25000000000000030531e-003
  +4.50000000000000052736e-003
  +4.74999999999999988204e-003
  +5.00000000000000010408e-003
</dep>
<dep _net0.V VoltageVar>
  +0.00000000000000000000e+000
  +5.00000000000000000000e-001
  +1.00000000000000000000e+000
  +1.50000000000000000000e+000
  +2.00000000000000000000e+000
  +2.50000000000000000000e+000
  +3.00000000000000000000e+000
  +3.50000000000000000000e+000
  +4.00000000000000000000e+000
  +4.50000000000000000000e+000
  +5.00000000000000000000e+000
  +5.50000000000000000000e+000
  +6.00000000000000000000e+000
  +6.50000000000000000000e+000
  +7.00000000000000000000e+000
  +7.50000000000000000000e+000
  +8.00000000000000000000e+000
  +8.50000000000000000000e+000
  +9.00000000000000000000e+000
  +9.50000000000000000000e+000
  +1.00000000000000000000e+001
</dep>
<dep _net1.V VoltageVar>
  +0.00000000000000000000e+000
  +0.00000000000000000000e+000
  +0.00000000000000000000e+000
  +0.00000000000000000000e+000
  +0.00000000000000000000e+000
  +0.00000000000000000000e+000
  +0.00000000000000000000e+000
  +0.00000000000000000000e+000
  +0.00000000000000000000e+000
  +0.00000000000000000000e+000
  +0.00000000000000000000e+000
  +0.00000000000000000000e+000
  +0.00000000000000000000e+000
  +0.00000000000000000000e+000
  +0.00000000000000000000e+000
  +0.00000000000000000000e+000
  +0.00000000000000000000e+000
  +0.00000000000000000000e+000
  +0.00000000000000000000e+000
  +0.00000000000000000000e+000
  +0.00000000000000000000e+000
</dep>
